            * c:\users\91766\desktop\sky130\lvdr_test\lvdr_test.cir
            Transient Analysis  Sat Oct 08 17:11:54  2022
--------------------------------------------------------------------------------
Index   time                            din             din_bar         
--------------------------------------------------------------------------------
0	0.000000e+00	0.000000e+00	0.000000e+00	1.800000e+00	
1	1.000000e-12	0.000000e+00	0.000000e+00	1.800000e+00	
2	2.000000e-12	0.000000e+00	0.000000e+00	1.800000e+00	
3	4.000000e-12	0.000000e+00	0.000000e+00	1.800000e+00	
4	8.000000e-12	0.000000e+00	0.000000e+00	1.800000e+00	
5	1.600000e-11	0.000000e+00	0.000000e+00	1.800000e+00	
6	3.200000e-11	0.000000e+00	0.000000e+00	1.800000e+00	
7	6.400000e-11	0.000000e+00	0.000000e+00	1.800000e+00	
8	1.000000e-10	0.000000e+00	0.000000e+00	1.800000e+00	
9	1.064000e-10	0.000000e+00	1.152000e-01	1.684800e+00	
10	1.192000e-10	0.000000e+00	3.456000e-01	1.454400e+00	
11	1.448000e-10	0.000000e+00	8.064000e-01	9.936000e-01	
12	1.788972e-10	0.000000e+00	1.420149e+00	3.798506e-01	
13	2.000000e-10	0.000000e+00	1.800000e+00	0.000000e+00	
14	2.040218e-10	0.000000e+00	1.800000e+00	0.000000e+00	
15	2.120655e-10	0.000000e+00	1.800000e+00	0.000000e+00	
16	2.281528e-10	0.000000e+00	1.800000e+00	0.000000e+00	
17	2.603275e-10	0.000000e+00	1.800000e+00	0.000000e+00	
18	3.246768e-10	0.000000e+00	1.800000e+00	0.000000e+00	
19	4.160328e-10	0.000000e+00	1.800000e+00	0.000000e+00	
20	5.160328e-10	0.000000e+00	1.800000e+00	0.000000e+00	
21	6.160328e-10	0.000000e+00	1.800000e+00	0.000000e+00	
22	7.160328e-10	0.000000e+00	1.800000e+00	0.000000e+00	
23	8.160328e-10	0.000000e+00	1.800000e+00	0.000000e+00	
24	9.160328e-10	0.000000e+00	1.800000e+00	0.000000e+00	
25	1.016033e-09	0.000000e+00	1.800000e+00	0.000000e+00	
26	1.116033e-09	0.000000e+00	1.800000e+00	0.000000e+00	
27	1.216033e-09	0.000000e+00	1.800000e+00	0.000000e+00	
28	1.316033e-09	0.000000e+00	1.800000e+00	0.000000e+00	
29	1.416033e-09	0.000000e+00	1.800000e+00	0.000000e+00	
30	1.516033e-09	0.000000e+00	1.800000e+00	0.000000e+00	
31	1.616033e-09	0.000000e+00	1.800000e+00	0.000000e+00	
32	1.716033e-09	0.000000e+00	1.800000e+00	0.000000e+00	
33	1.816033e-09	0.000000e+00	1.800000e+00	0.000000e+00	
34	1.916033e-09	0.000000e+00	1.800000e+00	0.000000e+00	
35	2.016033e-09	0.000000e+00	1.800000e+00	0.000000e+00	
36	2.116033e-09	0.000000e+00	1.800000e+00	0.000000e+00	
37	2.216033e-09	0.000000e+00	1.800000e+00	0.000000e+00	
38	2.316033e-09	0.000000e+00	1.800000e+00	0.000000e+00	
39	2.416033e-09	0.000000e+00	1.800000e+00	0.000000e+00	
40	2.516033e-09	0.000000e+00	1.800000e+00	0.000000e+00	
41	2.616033e-09	0.000000e+00	1.800000e+00	0.000000e+00	
42	2.716033e-09	0.000000e+00	1.800000e+00	0.000000e+00	
43	2.816033e-09	0.000000e+00	1.800000e+00	0.000000e+00	
44	2.916033e-09	0.000000e+00	1.800000e+00	0.000000e+00	
45	3.016033e-09	0.000000e+00	1.800000e+00	0.000000e+00	
46	3.116033e-09	0.000000e+00	1.800000e+00	0.000000e+00	
47	3.216033e-09	0.000000e+00	1.800000e+00	0.000000e+00	
48	3.316033e-09	0.000000e+00	1.800000e+00	0.000000e+00	
49	3.416033e-09	0.000000e+00	1.800000e+00	0.000000e+00	
50	3.516033e-09	0.000000e+00	1.800000e+00	0.000000e+00	
51	3.616033e-09	0.000000e+00	1.800000e+00	0.000000e+00	
52	3.716033e-09	0.000000e+00	1.800000e+00	0.000000e+00	
53	3.816033e-09	0.000000e+00	1.800000e+00	0.000000e+00	
54	3.916033e-09	0.000000e+00	1.800000e+00	0.000000e+00	

Index   time                            din             din_bar         
--------------------------------------------------------------------------------
55	4.016033e-09	0.000000e+00	1.800000e+00	0.000000e+00	
56	4.116033e-09	0.000000e+00	1.800000e+00	0.000000e+00	
57	4.216033e-09	0.000000e+00	1.800000e+00	0.000000e+00	
58	4.316033e-09	0.000000e+00	1.800000e+00	0.000000e+00	
59	4.416033e-09	0.000000e+00	1.800000e+00	0.000000e+00	
60	4.516033e-09	0.000000e+00	1.800000e+00	0.000000e+00	
61	4.616033e-09	0.000000e+00	1.800000e+00	0.000000e+00	
62	4.716033e-09	0.000000e+00	1.800000e+00	0.000000e+00	
63	4.816033e-09	0.000000e+00	1.800000e+00	0.000000e+00	
64	4.916033e-09	0.000000e+00	1.800000e+00	0.000000e+00	
65	5.016033e-09	0.000000e+00	1.800000e+00	0.000000e+00	
66	5.116033e-09	0.000000e+00	1.800000e+00	0.000000e+00	
67	5.216033e-09	0.000000e+00	1.800000e+00	0.000000e+00	
68	5.316033e-09	0.000000e+00	1.800000e+00	0.000000e+00	
69	5.416033e-09	0.000000e+00	1.800000e+00	0.000000e+00	
70	5.516033e-09	0.000000e+00	1.800000e+00	0.000000e+00	
71	5.616033e-09	0.000000e+00	1.800000e+00	0.000000e+00	
72	5.716033e-09	0.000000e+00	1.800000e+00	0.000000e+00	
73	5.816033e-09	0.000000e+00	1.800000e+00	0.000000e+00	
74	5.916033e-09	0.000000e+00	1.800000e+00	0.000000e+00	
75	6.016033e-09	0.000000e+00	1.800000e+00	0.000000e+00	
76	6.116033e-09	0.000000e+00	1.800000e+00	0.000000e+00	
77	6.216033e-09	0.000000e+00	1.800000e+00	0.000000e+00	
78	6.316033e-09	0.000000e+00	1.800000e+00	0.000000e+00	
79	6.416033e-09	0.000000e+00	1.800000e+00	0.000000e+00	
80	6.516033e-09	0.000000e+00	1.800000e+00	0.000000e+00	
81	6.616033e-09	0.000000e+00	1.800000e+00	0.000000e+00	
82	6.716033e-09	0.000000e+00	1.800000e+00	0.000000e+00	
83	6.816033e-09	0.000000e+00	1.800000e+00	0.000000e+00	
84	6.916033e-09	0.000000e+00	1.800000e+00	0.000000e+00	
85	7.016033e-09	0.000000e+00	1.800000e+00	0.000000e+00	
86	7.116033e-09	0.000000e+00	1.800000e+00	0.000000e+00	
87	7.216033e-09	0.000000e+00	1.800000e+00	0.000000e+00	
88	7.316033e-09	0.000000e+00	1.800000e+00	0.000000e+00	
89	7.416033e-09	0.000000e+00	1.800000e+00	0.000000e+00	
90	7.516033e-09	0.000000e+00	1.800000e+00	0.000000e+00	
91	7.616033e-09	0.000000e+00	1.800000e+00	0.000000e+00	
92	7.716033e-09	0.000000e+00	1.800000e+00	0.000000e+00	
93	7.816033e-09	0.000000e+00	1.800000e+00	0.000000e+00	
94	7.916033e-09	0.000000e+00	1.800000e+00	0.000000e+00	
95	8.016033e-09	0.000000e+00	1.800000e+00	0.000000e+00	
96	8.116033e-09	0.000000e+00	1.800000e+00	0.000000e+00	
97	8.216033e-09	0.000000e+00	1.800000e+00	0.000000e+00	
98	8.316033e-09	0.000000e+00	1.800000e+00	0.000000e+00	
99	8.416033e-09	0.000000e+00	1.800000e+00	0.000000e+00	
100	8.516033e-09	0.000000e+00	1.800000e+00	0.000000e+00	
101	8.616033e-09	0.000000e+00	1.800000e+00	0.000000e+00	
102	8.716033e-09	0.000000e+00	1.800000e+00	0.000000e+00	
103	8.816033e-09	0.000000e+00	1.800000e+00	0.000000e+00	
104	8.916033e-09	0.000000e+00	1.800000e+00	0.000000e+00	
105	9.016033e-09	0.000000e+00	1.800000e+00	0.000000e+00	
106	9.116033e-09	0.000000e+00	1.800000e+00	0.000000e+00	
107	9.216033e-09	0.000000e+00	1.800000e+00	0.000000e+00	
108	9.316033e-09	0.000000e+00	1.800000e+00	0.000000e+00	
109	9.416033e-09	0.000000e+00	1.800000e+00	0.000000e+00	
110	9.516033e-09	0.000000e+00	1.800000e+00	0.000000e+00	
111	9.616033e-09	0.000000e+00	1.800000e+00	0.000000e+00	
112	9.716033e-09	0.000000e+00	1.800000e+00	0.000000e+00	

Index   time                            din             din_bar         
--------------------------------------------------------------------------------
113	9.816033e-09	0.000000e+00	1.800000e+00	0.000000e+00	
114	9.916033e-09	0.000000e+00	1.800000e+00	0.000000e+00	
115	1.001603e-08	0.000000e+00	1.800000e+00	0.000000e+00	
116	1.011603e-08	0.000000e+00	1.800000e+00	0.000000e+00	
117	1.021603e-08	0.000000e+00	1.800000e+00	0.000000e+00	
118	1.031603e-08	0.000000e+00	1.800000e+00	0.000000e+00	
119	1.041603e-08	0.000000e+00	1.800000e+00	0.000000e+00	
120	1.051603e-08	0.000000e+00	1.800000e+00	0.000000e+00	
121	1.061603e-08	0.000000e+00	1.800000e+00	0.000000e+00	
122	1.071603e-08	0.000000e+00	1.800000e+00	0.000000e+00	
123	1.081603e-08	0.000000e+00	1.800000e+00	0.000000e+00	
124	1.091603e-08	0.000000e+00	1.800000e+00	0.000000e+00	
125	1.101603e-08	0.000000e+00	1.800000e+00	0.000000e+00	
126	1.111603e-08	0.000000e+00	1.800000e+00	0.000000e+00	
127	1.121603e-08	0.000000e+00	1.800000e+00	0.000000e+00	
128	1.131603e-08	0.000000e+00	1.800000e+00	0.000000e+00	
129	1.141603e-08	0.000000e+00	1.800000e+00	0.000000e+00	
130	1.151603e-08	0.000000e+00	1.800000e+00	0.000000e+00	
131	1.161603e-08	0.000000e+00	1.800000e+00	0.000000e+00	
132	1.171603e-08	0.000000e+00	1.800000e+00	0.000000e+00	
133	1.181603e-08	0.000000e+00	1.800000e+00	0.000000e+00	
134	1.191603e-08	0.000000e+00	1.800000e+00	0.000000e+00	
135	1.201603e-08	0.000000e+00	1.800000e+00	0.000000e+00	
136	1.211603e-08	0.000000e+00	1.800000e+00	0.000000e+00	
137	1.221603e-08	0.000000e+00	1.800000e+00	0.000000e+00	
138	1.231603e-08	0.000000e+00	1.800000e+00	0.000000e+00	
139	1.241603e-08	0.000000e+00	1.800000e+00	0.000000e+00	
140	1.251603e-08	0.000000e+00	1.800000e+00	0.000000e+00	
141	1.261603e-08	0.000000e+00	1.800000e+00	0.000000e+00	
142	1.271603e-08	0.000000e+00	1.800000e+00	0.000000e+00	
143	1.281603e-08	0.000000e+00	1.800000e+00	0.000000e+00	
144	1.291603e-08	0.000000e+00	1.800000e+00	0.000000e+00	
145	1.301603e-08	0.000000e+00	1.800000e+00	0.000000e+00	
146	1.311603e-08	0.000000e+00	1.800000e+00	0.000000e+00	
147	1.321603e-08	0.000000e+00	1.800000e+00	0.000000e+00	
148	1.331603e-08	0.000000e+00	1.800000e+00	0.000000e+00	
149	1.341603e-08	0.000000e+00	1.800000e+00	0.000000e+00	
150	1.351603e-08	0.000000e+00	1.800000e+00	0.000000e+00	
151	1.361603e-08	0.000000e+00	1.800000e+00	0.000000e+00	
152	1.371603e-08	0.000000e+00	1.800000e+00	0.000000e+00	
153	1.381603e-08	0.000000e+00	1.800000e+00	0.000000e+00	
154	1.391603e-08	0.000000e+00	1.800000e+00	0.000000e+00	
155	1.401603e-08	0.000000e+00	1.800000e+00	0.000000e+00	
156	1.411603e-08	0.000000e+00	1.800000e+00	0.000000e+00	
157	1.421603e-08	0.000000e+00	1.800000e+00	0.000000e+00	
158	1.431603e-08	0.000000e+00	1.800000e+00	0.000000e+00	
159	1.441603e-08	0.000000e+00	1.800000e+00	0.000000e+00	
160	1.451603e-08	0.000000e+00	1.800000e+00	0.000000e+00	
161	1.461603e-08	0.000000e+00	1.800000e+00	0.000000e+00	
162	1.471603e-08	0.000000e+00	1.800000e+00	0.000000e+00	
163	1.481603e-08	0.000000e+00	1.800000e+00	0.000000e+00	
164	1.491603e-08	0.000000e+00	1.800000e+00	0.000000e+00	
165	1.501603e-08	0.000000e+00	1.800000e+00	0.000000e+00	
166	1.511603e-08	0.000000e+00	1.800000e+00	0.000000e+00	
167	1.521603e-08	0.000000e+00	1.800000e+00	0.000000e+00	
168	1.531603e-08	0.000000e+00	1.800000e+00	0.000000e+00	
169	1.541603e-08	0.000000e+00	1.800000e+00	0.000000e+00	
170	1.551603e-08	0.000000e+00	1.800000e+00	0.000000e+00	

Index   time                            din             din_bar         
--------------------------------------------------------------------------------
171	1.561603e-08	0.000000e+00	1.800000e+00	0.000000e+00	
172	1.571603e-08	0.000000e+00	1.800000e+00	0.000000e+00	
173	1.581603e-08	0.000000e+00	1.800000e+00	0.000000e+00	
174	1.591603e-08	0.000000e+00	1.800000e+00	0.000000e+00	
175	1.601603e-08	0.000000e+00	1.800000e+00	0.000000e+00	
176	1.611603e-08	0.000000e+00	1.800000e+00	0.000000e+00	
177	1.621603e-08	0.000000e+00	1.800000e+00	0.000000e+00	
178	1.631603e-08	0.000000e+00	1.800000e+00	0.000000e+00	
179	1.641603e-08	0.000000e+00	1.800000e+00	0.000000e+00	
180	1.651603e-08	0.000000e+00	1.800000e+00	0.000000e+00	
181	1.661603e-08	0.000000e+00	1.800000e+00	0.000000e+00	
182	1.671603e-08	0.000000e+00	1.800000e+00	0.000000e+00	
183	1.681603e-08	0.000000e+00	1.800000e+00	0.000000e+00	
184	1.691603e-08	0.000000e+00	1.800000e+00	0.000000e+00	
185	1.701603e-08	0.000000e+00	1.800000e+00	0.000000e+00	
186	1.711603e-08	0.000000e+00	1.800000e+00	0.000000e+00	
187	1.721603e-08	0.000000e+00	1.800000e+00	0.000000e+00	
188	1.731603e-08	0.000000e+00	1.800000e+00	0.000000e+00	
189	1.741603e-08	0.000000e+00	1.800000e+00	0.000000e+00	
190	1.751603e-08	0.000000e+00	1.800000e+00	0.000000e+00	
191	1.761603e-08	0.000000e+00	1.800000e+00	0.000000e+00	
192	1.771603e-08	0.000000e+00	1.800000e+00	0.000000e+00	
193	1.781603e-08	0.000000e+00	1.800000e+00	0.000000e+00	
194	1.791603e-08	0.000000e+00	1.800000e+00	0.000000e+00	
195	1.801603e-08	0.000000e+00	1.800000e+00	0.000000e+00	
196	1.811603e-08	0.000000e+00	1.800000e+00	0.000000e+00	
197	1.821603e-08	0.000000e+00	1.800000e+00	0.000000e+00	
198	1.831603e-08	0.000000e+00	1.800000e+00	0.000000e+00	
199	1.841603e-08	0.000000e+00	1.800000e+00	0.000000e+00	
200	1.851603e-08	0.000000e+00	1.800000e+00	0.000000e+00	
201	1.861603e-08	0.000000e+00	1.800000e+00	0.000000e+00	
202	1.871603e-08	0.000000e+00	1.800000e+00	0.000000e+00	
203	1.881603e-08	0.000000e+00	1.800000e+00	0.000000e+00	
204	1.891603e-08	0.000000e+00	1.800000e+00	0.000000e+00	
205	1.901603e-08	0.000000e+00	1.800000e+00	0.000000e+00	
206	1.911603e-08	0.000000e+00	1.800000e+00	0.000000e+00	
207	1.921603e-08	0.000000e+00	1.800000e+00	0.000000e+00	
208	1.931603e-08	0.000000e+00	1.800000e+00	0.000000e+00	
209	1.941603e-08	0.000000e+00	1.800000e+00	0.000000e+00	
210	1.951603e-08	0.000000e+00	1.800000e+00	0.000000e+00	
211	1.961603e-08	0.000000e+00	1.800000e+00	0.000000e+00	
212	1.971603e-08	0.000000e+00	1.800000e+00	0.000000e+00	
213	1.981603e-08	0.000000e+00	1.800000e+00	0.000000e+00	
214	1.991603e-08	0.000000e+00	1.800000e+00	0.000000e+00	
215	2.001603e-08	0.000000e+00	1.800000e+00	0.000000e+00	
216	2.011603e-08	0.000000e+00	1.800000e+00	0.000000e+00	
217	2.020000e-08	0.000000e+00	1.800000e+00	0.000000e+00	
218	2.021000e-08	0.000000e+00	1.620000e+00	1.800000e-01	
219	2.023000e-08	0.000000e+00	1.260000e+00	5.400000e-01	
220	2.027000e-08	0.000000e+00	5.400000e-01	1.260000e+00	
221	2.030000e-08	0.000000e+00	0.000000e+00	1.800000e+00	
222	2.030482e-08	0.000000e+00	0.000000e+00	1.800000e+00	
223	2.031446e-08	0.000000e+00	0.000000e+00	1.800000e+00	
224	2.033375e-08	0.000000e+00	0.000000e+00	1.800000e+00	
225	2.037232e-08	0.000000e+00	0.000000e+00	1.800000e+00	
226	2.044946e-08	0.000000e+00	0.000000e+00	1.800000e+00	
227	2.054946e-08	0.000000e+00	0.000000e+00	1.800000e+00	
228	2.064946e-08	0.000000e+00	0.000000e+00	1.800000e+00	

Index   time                            din             din_bar         
--------------------------------------------------------------------------------
229	2.074946e-08	0.000000e+00	0.000000e+00	1.800000e+00	
230	2.084946e-08	0.000000e+00	0.000000e+00	1.800000e+00	
231	2.094946e-08	0.000000e+00	0.000000e+00	1.800000e+00	
232	2.104946e-08	0.000000e+00	0.000000e+00	1.800000e+00	
233	2.114946e-08	0.000000e+00	0.000000e+00	1.800000e+00	
234	2.124946e-08	0.000000e+00	0.000000e+00	1.800000e+00	
235	2.134946e-08	0.000000e+00	0.000000e+00	1.800000e+00	
236	2.144946e-08	0.000000e+00	0.000000e+00	1.800000e+00	
237	2.154946e-08	0.000000e+00	0.000000e+00	1.800000e+00	
238	2.164946e-08	0.000000e+00	0.000000e+00	1.800000e+00	
239	2.174946e-08	0.000000e+00	0.000000e+00	1.800000e+00	
240	2.184946e-08	0.000000e+00	0.000000e+00	1.800000e+00	
241	2.194946e-08	0.000000e+00	0.000000e+00	1.800000e+00	
242	2.204946e-08	0.000000e+00	0.000000e+00	1.800000e+00	
243	2.214946e-08	0.000000e+00	0.000000e+00	1.800000e+00	
244	2.224946e-08	0.000000e+00	0.000000e+00	1.800000e+00	
245	2.234946e-08	0.000000e+00	0.000000e+00	1.800000e+00	
246	2.244946e-08	0.000000e+00	0.000000e+00	1.800000e+00	
247	2.254946e-08	0.000000e+00	0.000000e+00	1.800000e+00	
248	2.264946e-08	0.000000e+00	0.000000e+00	1.800000e+00	
249	2.274946e-08	0.000000e+00	0.000000e+00	1.800000e+00	
250	2.284946e-08	0.000000e+00	0.000000e+00	1.800000e+00	
251	2.294946e-08	0.000000e+00	0.000000e+00	1.800000e+00	
252	2.304946e-08	0.000000e+00	0.000000e+00	1.800000e+00	
253	2.314946e-08	0.000000e+00	0.000000e+00	1.800000e+00	
254	2.324946e-08	0.000000e+00	0.000000e+00	1.800000e+00	
255	2.334946e-08	0.000000e+00	0.000000e+00	1.800000e+00	
256	2.344946e-08	0.000000e+00	0.000000e+00	1.800000e+00	
257	2.354946e-08	0.000000e+00	0.000000e+00	1.800000e+00	
258	2.364946e-08	0.000000e+00	0.000000e+00	1.800000e+00	
259	2.374946e-08	0.000000e+00	0.000000e+00	1.800000e+00	
260	2.384946e-08	0.000000e+00	0.000000e+00	1.800000e+00	
261	2.394946e-08	0.000000e+00	0.000000e+00	1.800000e+00	
262	2.404946e-08	0.000000e+00	0.000000e+00	1.800000e+00	
263	2.414946e-08	0.000000e+00	0.000000e+00	1.800000e+00	
264	2.424946e-08	0.000000e+00	0.000000e+00	1.800000e+00	
265	2.434946e-08	0.000000e+00	0.000000e+00	1.800000e+00	
266	2.444946e-08	0.000000e+00	0.000000e+00	1.800000e+00	
267	2.454946e-08	0.000000e+00	0.000000e+00	1.800000e+00	
268	2.464946e-08	0.000000e+00	0.000000e+00	1.800000e+00	
269	2.474946e-08	0.000000e+00	0.000000e+00	1.800000e+00	
270	2.484946e-08	0.000000e+00	0.000000e+00	1.800000e+00	
271	2.494946e-08	0.000000e+00	0.000000e+00	1.800000e+00	
272	2.504946e-08	0.000000e+00	0.000000e+00	1.800000e+00	
273	2.514946e-08	0.000000e+00	0.000000e+00	1.800000e+00	
274	2.524946e-08	0.000000e+00	0.000000e+00	1.800000e+00	
275	2.534946e-08	0.000000e+00	0.000000e+00	1.800000e+00	
276	2.544946e-08	0.000000e+00	0.000000e+00	1.800000e+00	
277	2.554946e-08	0.000000e+00	0.000000e+00	1.800000e+00	
278	2.564946e-08	0.000000e+00	0.000000e+00	1.800000e+00	
279	2.574946e-08	0.000000e+00	0.000000e+00	1.800000e+00	
280	2.584946e-08	0.000000e+00	0.000000e+00	1.800000e+00	
281	2.594946e-08	0.000000e+00	0.000000e+00	1.800000e+00	
282	2.604946e-08	0.000000e+00	0.000000e+00	1.800000e+00	
283	2.614946e-08	0.000000e+00	0.000000e+00	1.800000e+00	
284	2.624946e-08	0.000000e+00	0.000000e+00	1.800000e+00	
285	2.634946e-08	0.000000e+00	0.000000e+00	1.800000e+00	
286	2.644946e-08	0.000000e+00	0.000000e+00	1.800000e+00	

Index   time                            din             din_bar         
--------------------------------------------------------------------------------
287	2.654946e-08	0.000000e+00	0.000000e+00	1.800000e+00	
288	2.664946e-08	0.000000e+00	0.000000e+00	1.800000e+00	
289	2.674946e-08	0.000000e+00	0.000000e+00	1.800000e+00	
290	2.684946e-08	0.000000e+00	0.000000e+00	1.800000e+00	
291	2.694946e-08	0.000000e+00	0.000000e+00	1.800000e+00	
292	2.704946e-08	0.000000e+00	0.000000e+00	1.800000e+00	
293	2.714946e-08	0.000000e+00	0.000000e+00	1.800000e+00	
294	2.724946e-08	0.000000e+00	0.000000e+00	1.800000e+00	
295	2.734946e-08	0.000000e+00	0.000000e+00	1.800000e+00	
296	2.744946e-08	0.000000e+00	0.000000e+00	1.800000e+00	
297	2.754946e-08	0.000000e+00	0.000000e+00	1.800000e+00	
298	2.764946e-08	0.000000e+00	0.000000e+00	1.800000e+00	
299	2.774946e-08	0.000000e+00	0.000000e+00	1.800000e+00	
300	2.784946e-08	0.000000e+00	0.000000e+00	1.800000e+00	
301	2.794946e-08	0.000000e+00	0.000000e+00	1.800000e+00	
302	2.804946e-08	0.000000e+00	0.000000e+00	1.800000e+00	
303	2.814946e-08	0.000000e+00	0.000000e+00	1.800000e+00	
304	2.824946e-08	0.000000e+00	0.000000e+00	1.800000e+00	
305	2.834946e-08	0.000000e+00	0.000000e+00	1.800000e+00	
306	2.844946e-08	0.000000e+00	0.000000e+00	1.800000e+00	
307	2.854946e-08	0.000000e+00	0.000000e+00	1.800000e+00	
308	2.864946e-08	0.000000e+00	0.000000e+00	1.800000e+00	
309	2.874946e-08	0.000000e+00	0.000000e+00	1.800000e+00	
310	2.884946e-08	0.000000e+00	0.000000e+00	1.800000e+00	
311	2.894946e-08	0.000000e+00	0.000000e+00	1.800000e+00	
312	2.904946e-08	0.000000e+00	0.000000e+00	1.800000e+00	
313	2.914946e-08	0.000000e+00	0.000000e+00	1.800000e+00	
314	2.924946e-08	0.000000e+00	0.000000e+00	1.800000e+00	
315	2.934946e-08	0.000000e+00	0.000000e+00	1.800000e+00	
316	2.944946e-08	0.000000e+00	0.000000e+00	1.800000e+00	
317	2.954946e-08	0.000000e+00	0.000000e+00	1.800000e+00	
318	2.964946e-08	0.000000e+00	0.000000e+00	1.800000e+00	
319	2.974946e-08	0.000000e+00	0.000000e+00	1.800000e+00	
320	2.984946e-08	0.000000e+00	0.000000e+00	1.800000e+00	
321	2.994946e-08	0.000000e+00	0.000000e+00	1.800000e+00	
322	3.004946e-08	0.000000e+00	0.000000e+00	1.800000e+00	
323	3.014946e-08	0.000000e+00	0.000000e+00	1.800000e+00	
324	3.024946e-08	0.000000e+00	0.000000e+00	1.800000e+00	
325	3.034946e-08	0.000000e+00	0.000000e+00	1.800000e+00	
